
T2288 000:300 SEGGER J-Link V4.96d Log File (0001ms, 0264ms total)
T2288 000:300 DLL Compiled: Jan 29 2015 11:45:37 (0001ms, 0264ms total)
T2288 000:300 Logging started @ 2016-12-15 16:17 (0001ms, 0264ms total)
T2288 000:301 JLINK_SetWarnOutHandler(...) (0000ms, 0264ms total)
T2288 000:301 JLINK_OpenEx(...)
Firmware: J-Link ARM V8 compiled Nov 28 2014 13:44:46
Hardware: V8.00
S/N: 58001139
Feature(s): RDI,FlashDL,FlashBP,JFlash  returns O.K. (0264ms, 0528ms total)
T2288 000:565 JLINK_SetErrorOutHandler(...) (0000ms, 0528ms total)
T2288 000:565 JLINK_ExecCommand("ProjectFile = "C:\Users\Artronics\Desktop\RTOS\project\JLinkSettings.ini"", ...)  returns 0x00 (0002ms, 0530ms total)
T2288 000:573 JLINK_ExecCommand("Device = STM32F107VC", ...)Device "STM32F107VC" selected.  returns 0x00 (0010ms, 0540ms total)
T2288 000:583 JLINK_ExecCommand("DisableConnectionTimeout", ...)  returns 0x01 (0000ms, 0540ms total)
T2288 000:583 JLINK_GetHardwareVersion()  returns 0x13880 (0000ms, 0540ms total)
T2288 000:583 JLINK_GetDLLVersion()  returns 49604 (0000ms, 0540ms total)
T2288 000:583 JLINK_GetFirmwareString(...) (0000ms, 0540ms total)
T2288 000:597 JLINK_GetDLLVersion()  returns 49604 (0000ms, 0540ms total)
T2288 000:597 JLINK_GetCompileDateTime() (0000ms, 0540ms total)
T2288 000:599 JLINK_GetFirmwareString(...) (0000ms, 0540ms total)
T2288 000:602 JLINK_GetHardwareVersion()  returns 0x13880 (0000ms, 0540ms total)
T2288 000:613 JLINK_TIF_Select(JLINKARM_TIF_SWD)  returns 0x00 (0001ms, 0541ms total)
T2288 000:614 JLINK_SetSpeed(50000) (0001ms, 0542ms total)
T2288 000:615 JLINK_GetId() >0x108 TIF>Found SWD-DP with ID 0x1BA01477 >0x0D TIF> >0x28 TIF> >0x0D TIF> >0x28 TIF> >0x0D TIF> >0x21 TIF> >0x0D TIF> >0x28 TIF> >0x0D TIF> >0x28 TIF> >0x0D TIF> >0x28 TIF> >0x0D TIF> >0x21 TIF> >0x0D TIF> >0x21 TIF> >0x0D TIF> >0x28 TIF> >0x0D TIF> >0x21 TIF> >0x0D TIF> >0x21 TIF> >0x0D TIF> >0x28 TIF> >0x0D TIF> >0x28 TIF> >0x108 TIF>Found SWD-DP with ID 0x1BA01477 >0x0D TIF> >0x21 TIF> >0x0D TIF> >0x28 TIF> >0x0D TIF> >0x28 TIF> >0x0D TIF> >0x21 TIF> >0x0D TIF> >0x28 TIF>
 >0x0D TIF> >0x21 TIF> >0x0D TIF> >0x21 TIF> >0x0D TIF> >0x21 TIF> >0x0D TIF> >0x21 TIF> >0x0D TIF> >0x28 TIF> >0x0D TIF> >0x28 TIF> >0x0D TIF> >0x21 TIF> >0x0D TIF> >0x28 TIF> >0x0D TIF> >0x28 TIF> >0x0D TIF> >0x28 TIF> >0x0D TIF> >0x21 TIF> >0x0D TIF> >0x21 TIF> >0x0D TIF> >0x28 TIF> >0x0D TIF> >0x21 TIF> >0x0D TIF> >0x21 TIF>Found Cortex-M3 r1p1, Little endian. -- CPU_WriteMem(4 bytes @ 0xE0002000) -- CPU_ReadMem(4 bytes @ 0xE000EDF0) -- CPU_WriteMem(4 bytes @ 0xE000EDF0)
 -- CPU_ReadMem(4 bytes @ 0xE0002000)FPUnit: 6 code (BP) slots and 2 literal slots -- CPU_ReadMem(4 bytes @ 0xE000EDFC) -- CPU_WriteMem(4 bytes @ 0xE000EDFC) -- CPU_ReadMem(4 bytes @ 0xE0001000) -- CPU_WriteMem(4 bytes @ 0xE0001000) -- CPU_ReadMem(4 bytes @ 0xE000ED88) -- CPU_WriteMem(4 bytes @ 0xE000ED88) -- CPU_ReadMem(4 bytes @ 0xE000ED88) -- CPU_WriteMem(4 bytes @ 0xE000ED88) -- CPU_ReadMem(4 bytes @ 0xE00FF010)TPIU fitted. -- CPU_ReadMem(4 bytes @ 0xE00FF014)ETM fitted.
 -- CPU_ReadMem(4 bytes @ 0xE00FF018) >0x0D TIF> >0x21 TIF>  returns 0x1BA01477 (0060ms, 0602ms total)
T2288 000:675 JLINK_GetDLLVersion()  returns 49604 (0000ms, 0602ms total)
T2288 000:675 JLINK_CORE_GetFound()  returns 0x30000FF (0000ms, 0602ms total)
T2288 000:675 JLINK_GetDebugInfo(0x100) -- Value=0xE00FF003  returns 0x00 (0000ms, 0602ms total)
T2288 000:677 JLINK_ReadMem (0xE00FF000, 0x0020 Bytes, ...) -- CPU is running -- CPU_ReadMem(32 bytes @ 0xE00FF000) - Data: 03 F0 F0 FF 03 20 F0 FF 03 30 F0 FF 03 10 F0 FF ...  returns 0x00 (0001ms, 0603ms total)
T2288 000:678 JLINK_ReadMem (0xE000EFF0, 0x0010 Bytes, ...) -- CPU is running -- CPU_ReadMem(16 bytes @ 0xE000EFF0) - Data: 0D 00 00 00 E0 00 00 00 05 00 00 00 B1 00 00 00  returns 0x00 (0001ms, 0604ms total)
T2288 000:679 JLINK_ReadMem (0xE000EFD0, 0x0020 Bytes, ...) -- CPU is running -- CPU_ReadMem(32 bytes @ 0xE000EFD0) - Data: 04 00 00 00 00 00 00 00 00 00 00 00 00 00 00 00 ...  returns 0x00 (0001ms, 0605ms total)
T2288 000:680 JLINK_ReadMem (0xE0001FF0, 0x0010 Bytes, ...) -- CPU is running -- CPU_ReadMem(16 bytes @ 0xE0001FF0) - Data: 0D 00 00 00 E0 00 00 00 05 00 00 00 B1 00 00 00  returns 0x00 (0001ms, 0606ms total)
T2288 000:681 JLINK_ReadMem (0xE0001FD0, 0x0020 Bytes, ...) -- CPU is running -- CPU_ReadMem(32 bytes @ 0xE0001FD0) - Data: 04 00 00 00 00 00 00 00 00 00 00 00 00 00 00 00 ...  returns 0x00 (0001ms, 0607ms total)
T2288 000:682 JLINK_ReadMem (0xE0002FF0, 0x0010 Bytes, ...) -- CPU is running -- CPU_ReadMem(16 bytes @ 0xE0002FF0) - Data: 0D 00 00 00 E0 00 00 00 05 00 00 00 B1 00 00 00  returns 0x00 (0001ms, 0608ms total)
T2288 000:683 JLINK_ReadMem (0xE0002FD0, 0x0020 Bytes, ...) -- CPU is running -- CPU_ReadMem(32 bytes @ 0xE0002FD0) - Data: 04 00 00 00 00 00 00 00 00 00 00 00 00 00 00 00 ...  returns 0x00 (0001ms, 0609ms total)
T2288 000:684 JLINK_ReadMem (0xE0000FF0, 0x0010 Bytes, ...) -- CPU is running -- CPU_ReadMem(16 bytes @ 0xE0000FF0) - Data: 0D 00 00 00 E0 00 00 00 05 00 00 00 B1 00 00 00  returns 0x00 (0001ms, 0610ms total)
T2288 000:685 JLINK_ReadMem (0xE0000FD0, 0x0020 Bytes, ...) -- CPU is running -- CPU_ReadMem(32 bytes @ 0xE0000FD0) - Data: 04 00 00 00 00 00 00 00 00 00 00 00 00 00 00 00 ...  returns 0x00 (0001ms, 0611ms total)
T2288 000:686 JLINK_ReadMem (0xE0040FF0, 0x0010 Bytes, ...) -- CPU is running -- CPU_ReadMem(16 bytes @ 0xE0040FF0) - Data: 0D 00 00 00 90 00 00 00 05 00 00 00 B1 00 00 00  returns 0x00 (0001ms, 0612ms total)
T2288 000:687 JLINK_ReadMem (0xE0040FD0, 0x0020 Bytes, ...) -- CPU is running -- CPU_ReadMem(32 bytes @ 0xE0040FD0) - Data: 04 00 00 00 00 00 00 00 00 00 00 00 00 00 00 00 ...  returns 0x00 (0001ms, 0613ms total)
T2288 000:688 JLINK_ReadMem (0xE0041FF0, 0x0010 Bytes, ...) -- CPU is running -- CPU_ReadMem(16 bytes @ 0xE0041FF0) - Data: 0D 00 00 00 90 00 00 00 05 00 00 00 B1 00 00 00  returns 0x00 (0001ms, 0614ms total)
T2288 000:689 JLINK_ReadMem (0xE0041FD0, 0x0020 Bytes, ...) -- CPU is running -- CPU_ReadMem(32 bytes @ 0xE0041FD0) - Data: 04 00 00 00 00 00 00 00 00 00 00 00 00 00 00 00 ...  returns 0x00 (0001ms, 0615ms total)
T2288 000:690 JLINK_ReadMemU32(0xE000ED00, 0x0001 Items, ...) -- CPU is running -- CPU_ReadMem(4 bytes @ 0xE000ED00) - Data: 31 C2 1F 41  returns 0x01 (0001ms, 0616ms total)
T2288 000:691 JLINK_SetResetType(JLINKARM_RESET_TYPE_NORMAL)  returns JLINKARM_RESET_TYPE_NORMAL (0000ms, 0616ms total)
T2288 000:691 JLINK_Reset() -- CPU is running -- CPU_WriteMem(4 bytes @ 0xE000EDF0) -- CPU is running -- CPU_WriteMem(4 bytes @ 0xE000EDFC) >0x35 TIF> -- CPU is running -- CPU_WriteMem(4 bytes @ 0xE000ED0C) -- CPU is running -- CPU_ReadMem(4 bytes @ 0xE000EDF0) -- CPU is running -- CPU_ReadMem(4 bytes @ 0xE000EDF0) -- CPU is running -- CPU_WriteMem(4 bytes @ 0xE000EDF0) -- CPU is running -- CPU_WriteMem(4 bytes @ 0xE000EDFC) -- CPU is running -- CPU_ReadMem(4 bytes @ 0xE000EDF0)
 -- CPU_WriteMem(4 bytes @ 0xE0002000) -- CPU_ReadMem(4 bytes @ 0xE000EDFC) -- CPU_ReadMem(4 bytes @ 0xE0001000) (0021ms, 0637ms total)
T2288 000:712 JLINK_Halt()  returns 0x00 (0001ms, 0638ms total)
T2288 000:713 JLINK_IsHalted()  returns TRUE (0000ms, 0638ms total)
T2288 000:713 JLINK_ReadMemU32(0xE000EDF0, 0x0001 Items, ...) -- CPU_ReadMem(4 bytes @ 0xE000EDF0) - Data: 03 00 03 00  returns 0x01 (0000ms, 0638ms total)
T2288 000:713 JLINK_WriteU32(0xE000EDF0, 0xA05F0003) -- CPU_WriteMem(4 bytes @ 0xE000EDF0)  returns 0x00 (0001ms, 0639ms total)
T2288 000:714 JLINK_WriteU32(0xE000EDFC, 0x01000000) -- CPU_WriteMem(4 bytes @ 0xE000EDFC)  returns 0x00 (0001ms, 0640ms total)
T2288 000:731 JLINK_GetHWStatus(...)  returns 0x00 (0000ms, 0640ms total)
T2288 000:745 JLINK_GetNumBPUnits(Type = 0xFFFFFF00)  returns 0x06 (0000ms, 0640ms total)
T2288 000:745 JLINK_GetNumBPUnits(Type = 0xF0)  returns 0x2000 (0000ms, 0640ms total)
T2288 000:745 JLINK_GetNumWPUnits()  returns 0x04 (0001ms, 0641ms total)
T2288 000:753 JLINK_GetSpeed()  returns 0xFA0 (0000ms, 0641ms total)
T2288 000:758 JLINK_ReadMemU32(0xE000E004, 0x0001 Items, ...) -- CPU_ReadMem(4 bytes @ 0xE000E004) - Data: 02 00 00 00  returns 0x01 (0002ms, 0644ms total)
T2288 000:760 JLINK_ReadMemU32(0xE000E004, 0x0001 Items, ...) -- CPU_ReadMem(4 bytes @ 0xE000E004) - Data: 02 00 00 00  returns 0x01 (0000ms, 0644ms total)
T2288 000:761 JLINK_WriteMem(0xE0001000, 0x001C Bytes, ...) - Data: 01 00 00 00 00 00 00 00 00 00 00 00 00 00 00 00 ... -- CPU_WriteMem(28 bytes @ 0xE0001000)  returns 0x1C (0001ms, 0646ms total)
T2288 000:762 JLINK_ReadMem (0xE0001000, 0x001C Bytes, ...) -- CPU_ReadMem(28 bytes @ 0xE0001000) - Data: 01 00 00 40 00 00 00 00 00 00 00 00 00 00 00 00 ...  returns 0x00 (0001ms, 0647ms total)
T2288 000:763 JLINK_Halt()  returns 0x00 (0000ms, 0647ms total)
T2288 000:763 JLINK_IsHalted()  returns TRUE (0000ms, 0647ms total)
T2288 000:805 JLINK_WriteMem(0x20000000, 0x0164 Bytes, ...) - Data: 00 BE 0A E0 0D 78 2D 06 68 40 08 24 40 00 00 D3 ... -- CPU_WriteMem(356 bytes @ 0x20000000)  returns 0x164 (0004ms, 0651ms total)
T2288 000:809 JLINK_WriteReg(R0, 0x08000000)  returns 0x00 (0001ms, 0652ms total)
T2288 000:810 JLINK_WriteReg(R1, 0x00B71B00)  returns 0x00 (0000ms, 0652ms total)
T2288 000:810 JLINK_WriteReg(R2, 0x00000001)  returns 0x00 (0000ms, 0652ms total)
T2288 000:810 JLINK_WriteReg(R3, 0x00000000)  returns 0x00 (0000ms, 0652ms total)
T2288 000:810 JLINK_WriteReg(R4, 0x00000000)  returns 0x00 (0000ms, 0652ms total)
T2288 000:810 JLINK_WriteReg(R5, 0x00000000)  returns 0x00 (0000ms, 0652ms total)
T2288 000:810 JLINK_WriteReg(R6, 0x00000000)  returns 0x00 (0000ms, 0652ms total)
T2288 000:810 JLINK_WriteReg(R7, 0x00000000)  returns 0x00 (0000ms, 0652ms total)
T2288 000:810 JLINK_WriteReg(R8, 0x00000000)  returns 0x00 (0000ms, 0652ms total)
T2288 000:810 JLINK_WriteReg(R9, 0x20000160)  returns 0x00 (0000ms, 0652ms total)
T2288 000:810 JLINK_WriteReg(R10, 0x00000000)  returns 0x00 (0000ms, 0652ms total)
T2288 000:810 JLINK_WriteReg(R11, 0x00000000)  returns 0x00 (0000ms, 0652ms total)
T2288 000:810 JLINK_WriteReg(R12, 0x00000000)  returns 0x00 (0000ms, 0652ms total)
T2288 000:810 JLINK_WriteReg(R13 (SP), 0x20001000)  returns 0x00 (0000ms, 0652ms total)
T2288 000:810 JLINK_WriteReg(R14, 0x20000001)  returns 0x00 (0000ms, 0652ms total)
T2288 000:810 JLINK_WriteReg(R15 (PC), 0x20000038)  returns 0x00 (0000ms, 0652ms total)
T2288 000:810 JLINK_WriteReg(XPSR, 0x01000000)  returns 0x00 (0000ms, 0652ms total)
T2288 000:810 JLINK_WriteReg(MSP, 0x20001000)  returns 0x00 (0000ms, 0652ms total)
T2288 000:811 JLINK_WriteReg(PSP, 0x20001000)  returns 0x00 (0000ms, 0652ms total)
T2288 000:811 JLINK_WriteReg(CFBP, 0x00000000)  returns 0x00 (0000ms, 0652ms total)
T2288 000:811 JLINK_SetBPEx(Addr = 0x20000000, Type = 0xFFFFFFF2) -- CPU_ReadMem(2 bytes @ 0x20000000)  returns 0x00000001 (0001ms, 0653ms total)
T2288 000:812 JLINK_Go() -- CPU_WriteMem(2 bytes @ 0x20000000) -- CPU_WriteMem(4 bytes @ 0xE0002008) -- CPU_WriteMem(4 bytes @ 0xE000200C) -- CPU_WriteMem(4 bytes @ 0xE0002010) -- CPU_WriteMem(4 bytes @ 0xE0002014) -- CPU_WriteMem(4 bytes @ 0xE0002018) -- CPU_WriteMem(4 bytes @ 0xE000201C) -- CPU_WriteMem(4 bytes @ 0xE0001004) (0006ms, 0659ms total)
T2288 000:818 JLINK_IsHalted() -- CPU_ReadMem(2 bytes @ 0x20000000)  returns TRUE (0004ms, 0663ms total)
T2288 000:822 JLINK_ReadReg(R15 (PC))  returns 0x20000000 (0000ms, 0659ms total)
T2288 000:822 JLINK_ClrBPEx(BPHandle = 0x00000001)  returns 0x00 (0000ms, 0659ms total)
T2288 000:822 JLINK_ReadReg(R0)  returns 0x00000000 (0000ms, 0659ms total)
T2288 000:823 JLINK_WriteReg(R0, 0x08000000)  returns 0x00 (0000ms, 0659ms total)
T2288 000:823 JLINK_WriteReg(R1, 0x00B71B00)  returns 0x00 (0000ms, 0659ms total)
T2288 000:823 JLINK_WriteReg(R2, 0x00000001)  returns 0x00 (0000ms, 0659ms total)
T2288 000:823 JLINK_WriteReg(R3, 0x00000000)  returns 0x00 (0000ms, 0659ms total)
T2288 000:823 JLINK_WriteReg(R4, 0x00000000)  returns 0x00 (0001ms, 0660ms total)
T2288 000:824 JLINK_WriteReg(R5, 0x00000000)  returns 0x00 (0000ms, 0660ms total)
T2288 000:824 JLINK_WriteReg(R6, 0x00000000)  returns 0x00 (0000ms, 0660ms total)
T2288 000:824 JLINK_WriteReg(R7, 0x00000000)  returns 0x00 (0000ms, 0660ms total)
T2288 000:824 JLINK_WriteReg(R8, 0x00000000)  returns 0x00 (0000ms, 0660ms total)
T2288 000:824 JLINK_WriteReg(R9, 0x20000160)  returns 0x00 (0000ms, 0660ms total)
T2288 000:824 JLINK_WriteReg(R10, 0x00000000)  returns 0x00 (0000ms, 0660ms total)
T2288 000:824 JLINK_WriteReg(R11, 0x00000000)  returns 0x00 (0000ms, 0660ms total)
T2288 000:824 JLINK_WriteReg(R12, 0x00000000)  returns 0x00 (0000ms, 0660ms total)
T2288 000:824 JLINK_WriteReg(R13 (SP), 0x20001000)  returns 0x00 (0000ms, 0660ms total)
T2288 000:824 JLINK_WriteReg(R14, 0x20000001)  returns 0x00 (0000ms, 0660ms total)
T2288 000:824 JLINK_WriteReg(R15 (PC), 0x2000007C)  returns 0x00 (0000ms, 0660ms total)
T2288 000:824 JLINK_WriteReg(XPSR, 0x01000000)  returns 0x00 (0000ms, 0660ms total)
T2288 000:824 JLINK_WriteReg(MSP, 0x20001000)  returns 0x00 (0000ms, 0660ms total)
T2288 000:824 JLINK_WriteReg(PSP, 0x20001000)  returns 0x00 (0000ms, 0660ms total)
T2288 000:824 JLINK_WriteReg(CFBP, 0x00000000)  returns 0x00 (0000ms, 0660ms total)
T2288 000:824 JLINK_SetBPEx(Addr = 0x20000000, Type = 0xFFFFFFF2)  returns 0x00000002 (0001ms, 0661ms total)
T2288 000:825 JLINK_Go() (0002ms, 0663ms total)
T2288 000:827 JLINK_IsHalted()  returns FALSE (0000ms, 0663ms total)
T2288 000:901 JLINK_IsHalted() -- CPU_ReadMem(2 bytes @ 0x20000000)  returns TRUE (0004ms, 0667ms total)
T2288 000:905 JLINK_ReadReg(R15 (PC))  returns 0x20000000 (0000ms, 0663ms total)
T2288 000:905 JLINK_ClrBPEx(BPHandle = 0x00000002)  returns 0x00 (0000ms, 0663ms total)
T2288 000:905 JLINK_ReadReg(R0)  returns 0x00000000 (0000ms, 0663ms total)
T2288 000:957 JLINK_WriteReg(R0, 0x00000001)  returns 0x00 (0000ms, 0663ms total)
T2288 000:957 JLINK_WriteReg(R1, 0x00B71B00)  returns 0x00 (0000ms, 0663ms total)
T2288 000:957 JLINK_WriteReg(R2, 0x00000001)  returns 0x00 (0000ms, 0663ms total)
T2288 000:957 JLINK_WriteReg(R3, 0x00000000)  returns 0x00 (0000ms, 0663ms total)
T2288 000:957 JLINK_WriteReg(R4, 0x00000000)  returns 0x00 (0000ms, 0663ms total)
T2288 000:957 JLINK_WriteReg(R5, 0x00000000)  returns 0x00 (0000ms, 0663ms total)
T2288 000:957 JLINK_WriteReg(R6, 0x00000000)  returns 0x00 (0000ms, 0663ms total)
T2288 000:957 JLINK_WriteReg(R7, 0x00000000)  returns 0x00 (0000ms, 0663ms total)
T2288 000:957 JLINK_WriteReg(R8, 0x00000000)  returns 0x00 (0000ms, 0663ms total)
T2288 000:957 JLINK_WriteReg(R9, 0x20000160)  returns 0x00 (0000ms, 0663ms total)
T2288 000:957 JLINK_WriteReg(R10, 0x00000000)  returns 0x00 (0000ms, 0663ms total)
T2288 000:957 JLINK_WriteReg(R11, 0x00000000)  returns 0x00 (0000ms, 0663ms total)
T2288 000:957 JLINK_WriteReg(R12, 0x00000000)  returns 0x00 (0000ms, 0663ms total)
T2288 000:957 JLINK_WriteReg(R13 (SP), 0x20001000)  returns 0x00 (0000ms, 0663ms total)
T2288 000:957 JLINK_WriteReg(R14, 0x20000001)  returns 0x00 (0000ms, 0663ms total)
T2288 000:957 JLINK_WriteReg(R15 (PC), 0x2000006A)  returns 0x00 (0000ms, 0663ms total)
T2288 000:957 JLINK_WriteReg(XPSR, 0x01000000)  returns 0x00 (0000ms, 0663ms total)
T2288 000:957 JLINK_WriteReg(MSP, 0x20001000)  returns 0x00 (0000ms, 0663ms total)
T2288 000:957 JLINK_WriteReg(PSP, 0x20001000)  returns 0x00 (0000ms, 0663ms total)
T2288 000:957 JLINK_WriteReg(CFBP, 0x00000000)  returns 0x00 (0000ms, 0663ms total)
T2288 000:957 JLINK_SetBPEx(Addr = 0x20000000, Type = 0xFFFFFFF2)  returns 0x00000003 (0000ms, 0663ms total)
T2288 000:957 JLINK_Go() (0003ms, 0666ms total)
T2288 000:960 JLINK_IsHalted() -- CPU_ReadMem(2 bytes @ 0x20000000)  returns TRUE (0004ms, 0670ms total)
T2288 000:964 JLINK_ReadReg(R15 (PC))  returns 0x20000000 (0000ms, 0666ms total)
T2288 000:964 JLINK_ClrBPEx(BPHandle = 0x00000003)  returns 0x00 (0000ms, 0666ms total)
T2288 000:964 JLINK_ReadReg(R0)  returns 0x00000000 (0000ms, 0666ms total)
T2288 000:973 JLINK_WriteMem(0x20000000, 0x0164 Bytes, ...) - Data: 00 BE 0A E0 0D 78 2D 06 68 40 08 24 40 00 00 D3 ... -- CPU_WriteMem(356 bytes @ 0x20000000)  returns 0x164 (0003ms, 0669ms total)
T2288 000:976 JLINK_WriteReg(R0, 0x08000000)  returns 0x00 (0000ms, 0669ms total)
T2288 000:976 JLINK_WriteReg(R1, 0x00B71B00)  returns 0x00 (0000ms, 0669ms total)
T2288 000:976 JLINK_WriteReg(R2, 0x00000002)  returns 0x00 (0000ms, 0669ms total)
T2288 000:976 JLINK_WriteReg(R3, 0x00000000)  returns 0x00 (0000ms, 0669ms total)
T2288 000:976 JLINK_WriteReg(R4, 0x00000000)  returns 0x00 (0000ms, 0669ms total)
T2288 000:976 JLINK_WriteReg(R5, 0x00000000)  returns 0x00 (0000ms, 0669ms total)
T2288 000:976 JLINK_WriteReg(R6, 0x00000000)  returns 0x00 (0000ms, 0669ms total)
T2288 000:976 JLINK_WriteReg(R7, 0x00000000)  returns 0x00 (0000ms, 0669ms total)
T2288 000:976 JLINK_WriteReg(R8, 0x00000000)  returns 0x00 (0000ms, 0669ms total)
T2288 000:976 JLINK_WriteReg(R9, 0x20000160)  returns 0x00 (0000ms, 0669ms total)
T2288 000:976 JLINK_WriteReg(R10, 0x00000000)  returns 0x00 (0000ms, 0669ms total)
T2288 000:976 JLINK_WriteReg(R11, 0x00000000)  returns 0x00 (0000ms, 0669ms total)
T2288 000:976 JLINK_WriteReg(R12, 0x00000000)  returns 0x00 (0000ms, 0669ms total)
T2288 000:976 JLINK_WriteReg(R13 (SP), 0x20001000)  returns 0x00 (0000ms, 0669ms total)
T2288 000:976 JLINK_WriteReg(R14, 0x20000001)  returns 0x00 (0000ms, 0669ms total)
T2288 000:976 JLINK_WriteReg(R15 (PC), 0x20000038)  returns 0x00 (0001ms, 0670ms total)
T2288 000:977 JLINK_WriteReg(XPSR, 0x01000000)  returns 0x00 (0000ms, 0670ms total)
T2288 000:977 JLINK_WriteReg(MSP, 0x20001000)  returns 0x00 (0000ms, 0670ms total)
T2288 000:977 JLINK_WriteReg(PSP, 0x20001000)  returns 0x00 (0000ms, 0670ms total)
T2288 000:977 JLINK_WriteReg(CFBP, 0x00000000)  returns 0x00 (0000ms, 0670ms total)
T2288 000:977 JLINK_SetBPEx(Addr = 0x20000000, Type = 0xFFFFFFF2) -- CPU_ReadMem(2 bytes @ 0x20000000)  returns 0x00000004 (0001ms, 0671ms total)
T2288 000:978 JLINK_Go() -- CPU_WriteMem(2 bytes @ 0x20000000) (0003ms, 0674ms total)
T2288 000:981 JLINK_IsHalted() -- CPU_ReadMem(2 bytes @ 0x20000000)  returns TRUE (0004ms, 0678ms total)
T2288 000:985 JLINK_ReadReg(R15 (PC))  returns 0x20000000 (0000ms, 0674ms total)
T2288 000:985 JLINK_ClrBPEx(BPHandle = 0x00000004)  returns 0x00 (0000ms, 0674ms total)
T2288 000:985 JLINK_ReadReg(R0)  returns 0x00000000 (0000ms, 0674ms total)
T2288 000:986 JLINK_WriteMem(0x20000164, 0x0400 Bytes, ...) - Data: C0 FC 00 20 61 02 00 08 65 02 00 08 67 02 00 08 ... -- CPU_WriteMem(1024 bytes @ 0x20000164)  returns 0x400 (0007ms, 0681ms total)
T2288 000:993 JLINK_WriteReg(R0, 0x08000000)  returns 0x00 (0000ms, 0681ms total)
T2288 000:993 JLINK_WriteReg(R1, 0x00000400)  returns 0x00 (0000ms, 0681ms total)
T2288 000:993 JLINK_WriteReg(R2, 0x20000164)  returns 0x00 (0000ms, 0681ms total)
T2288 000:993 JLINK_WriteReg(R3, 0x00000000)  returns 0x00 (0000ms, 0681ms total)
T2288 000:993 JLINK_WriteReg(R4, 0x00000000)  returns 0x00 (0000ms, 0681ms total)
T2288 000:993 JLINK_WriteReg(R5, 0x00000000)  returns 0x00 (0000ms, 0681ms total)
T2288 000:993 JLINK_WriteReg(R6, 0x00000000)  returns 0x00 (0000ms, 0681ms total)
T2288 000:993 JLINK_WriteReg(R7, 0x00000000)  returns 0x00 (0000ms, 0681ms total)
T2288 000:993 JLINK_WriteReg(R8, 0x00000000)  returns 0x00 (0000ms, 0681ms total)
T2288 000:993 JLINK_WriteReg(R9, 0x20000160)  returns 0x00 (0000ms, 0681ms total)
T2288 000:993 JLINK_WriteReg(R10, 0x00000000)  returns 0x00 (0000ms, 0681ms total)
T2288 000:993 JLINK_WriteReg(R11, 0x00000000)  returns 0x00 (0000ms, 0681ms total)
T2288 000:993 JLINK_WriteReg(R12, 0x00000000)  returns 0x00 (0000ms, 0681ms total)
T2288 000:993 JLINK_WriteReg(R13 (SP), 0x20001000)  returns 0x00 (0000ms, 0681ms total)
T2288 000:993 JLINK_WriteReg(R14, 0x20000001)  returns 0x00 (0000ms, 0681ms total)
T2288 000:993 JLINK_WriteReg(R15 (PC), 0x200000F4)  returns 0x00 (0000ms, 0681ms total)
T2288 000:993 JLINK_WriteReg(XPSR, 0x01000000)  returns 0x00 (0000ms, 0681ms total)
T2288 000:993 JLINK_WriteReg(MSP, 0x20001000)  returns 0x00 (0000ms, 0681ms total)
T2288 000:993 JLINK_WriteReg(PSP, 0x20001000)  returns 0x00 (0000ms, 0681ms total)
T2288 000:993 JLINK_WriteReg(CFBP, 0x00000000)  returns 0x00 (0000ms, 0681ms total)
T2288 000:993 JLINK_SetBPEx(Addr = 0x20000000, Type = 0xFFFFFFF2)  returns 0x00000005 (0000ms, 0681ms total)
T2288 000:993 JLINK_Go() (0003ms, 0684ms total)
T2288 000:996 JLINK_IsHalted()  returns FALSE (0001ms, 0685ms total)
T2288 001:054 JLINK_IsHalted() -- CPU_ReadMem(2 bytes @ 0x20000000)  returns TRUE (0004ms, 0688ms total)
T2288 001:058 JLINK_ReadReg(R15 (PC))  returns 0x20000000 (0000ms, 0684ms total)
T2288 001:058 JLINK_ClrBPEx(BPHandle = 0x00000005)  returns 0x00 (0000ms, 0684ms total)
T2288 001:058 JLINK_ReadReg(R0)  returns 0x00000000 (0000ms, 0684ms total)
T2288 001:058 JLINK_WriteMem(0x20000164, 0x0400 Bytes, ...) - Data: 00 02 04 29 C0 F0 12 80 10 F0 03 0C 00 F0 1B 80 ... -- CPU_WriteMem(1024 bytes @ 0x20000164)  returns 0x400 (0007ms, 0691ms total)
T2288 001:065 JLINK_WriteReg(R0, 0x08000400)  returns 0x00 (0000ms, 0691ms total)
T2288 001:065 JLINK_WriteReg(R1, 0x00000400)  returns 0x00 (0001ms, 0692ms total)
T2288 001:066 JLINK_WriteReg(R2, 0x20000164)  returns 0x00 (0000ms, 0692ms total)
T2288 001:066 JLINK_WriteReg(R3, 0x00000000)  returns 0x00 (0000ms, 0692ms total)
T2288 001:066 JLINK_WriteReg(R4, 0x00000000)  returns 0x00 (0000ms, 0692ms total)
T2288 001:066 JLINK_WriteReg(R5, 0x00000000)  returns 0x00 (0000ms, 0692ms total)
T2288 001:066 JLINK_WriteReg(R6, 0x00000000)  returns 0x00 (0000ms, 0692ms total)
T2288 001:066 JLINK_WriteReg(R7, 0x00000000)  returns 0x00 (0000ms, 0692ms total)
T2288 001:066 JLINK_WriteReg(R8, 0x00000000)  returns 0x00 (0000ms, 0692ms total)
T2288 001:066 JLINK_WriteReg(R9, 0x20000160)  returns 0x00 (0000ms, 0692ms total)
T2288 001:066 JLINK_WriteReg(R10, 0x00000000)  returns 0x00 (0000ms, 0692ms total)
T2288 001:066 JLINK_WriteReg(R11, 0x00000000)  returns 0x00 (0000ms, 0692ms total)
T2288 001:066 JLINK_WriteReg(R12, 0x00000000)  returns 0x00 (0000ms, 0692ms total)
T2288 001:066 JLINK_WriteReg(R13 (SP), 0x20001000)  returns 0x00 (0000ms, 0692ms total)
T2288 001:066 JLINK_WriteReg(R14, 0x20000001)  returns 0x00 (0000ms, 0692ms total)
T2288 001:066 JLINK_WriteReg(R15 (PC), 0x200000F4)  returns 0x00 (0000ms, 0692ms total)
T2288 001:066 JLINK_WriteReg(XPSR, 0x01000000)  returns 0x00 (0000ms, 0692ms total)
T2288 001:066 JLINK_WriteReg(MSP, 0x20001000)  returns 0x00 (0000ms, 0692ms total)
T2288 001:066 JLINK_WriteReg(PSP, 0x20001000)  returns 0x00 (0000ms, 0692ms total)
T2288 001:066 JLINK_WriteReg(CFBP, 0x00000000)  returns 0x00 (0000ms, 0692ms total)
T2288 001:066 JLINK_SetBPEx(Addr = 0x20000000, Type = 0xFFFFFFF2)  returns 0x00000006 (0000ms, 0692ms total)
T2288 001:066 JLINK_Go() (0002ms, 0694ms total)
T2288 001:068 JLINK_IsHalted()  returns FALSE (0001ms, 0695ms total)
T2288 001:071 JLINK_IsHalted()  returns FALSE (0000ms, 0694ms total)
T2288 001:073 JLINK_IsHalted()  returns FALSE (0000ms, 0694ms total)
T2288 001:104 JLINK_IsHalted() -- CPU_ReadMem(2 bytes @ 0x20000000)  returns TRUE (0003ms, 0697ms total)
T2288 001:107 JLINK_ReadReg(R15 (PC))  returns 0x20000000 (0000ms, 0694ms total)
T2288 001:107 JLINK_ClrBPEx(BPHandle = 0x00000006)  returns 0x00 (0000ms, 0694ms total)
T2288 001:107 JLINK_ReadReg(R0)  returns 0x00000000 (0000ms, 0694ms total)
T2288 001:108 JLINK_WriteMem(0x20000164, 0x0400 Bytes, ...) - Data: 0A 48 00 88 00 F0 02 00 00 28 F9 D0 07 48 00 1D ... -- CPU_WriteMem(1024 bytes @ 0x20000164)  returns 0x400 (0007ms, 0701ms total)
T2288 001:115 JLINK_WriteReg(R0, 0x08000800)  returns 0x00 (0000ms, 0701ms total)
T2288 001:115 JLINK_WriteReg(R1, 0x00000400)  returns 0x00 (0000ms, 0701ms total)
T2288 001:115 JLINK_WriteReg(R2, 0x20000164)  returns 0x00 (0000ms, 0701ms total)
T2288 001:115 JLINK_WriteReg(R3, 0x00000000)  returns 0x00 (0000ms, 0701ms total)
T2288 001:115 JLINK_WriteReg(R4, 0x00000000)  returns 0x00 (0000ms, 0701ms total)
T2288 001:115 JLINK_WriteReg(R5, 0x00000000)  returns 0x00 (0000ms, 0701ms total)
T2288 001:115 JLINK_WriteReg(R6, 0x00000000)  returns 0x00 (0000ms, 0701ms total)
T2288 001:115 JLINK_WriteReg(R7, 0x00000000)  returns 0x00 (0000ms, 0701ms total)
T2288 001:115 JLINK_WriteReg(R8, 0x00000000)  returns 0x00 (0000ms, 0701ms total)
T2288 001:115 JLINK_WriteReg(R9, 0x20000160)  returns 0x00 (0000ms, 0701ms total)
T2288 001:115 JLINK_WriteReg(R10, 0x00000000)  returns 0x00 (0000ms, 0701ms total)
T2288 001:115 JLINK_WriteReg(R11, 0x00000000)  returns 0x00 (0000ms, 0701ms total)
T2288 001:115 JLINK_WriteReg(R12, 0x00000000)  returns 0x00 (0000ms, 0701ms total)
T2288 001:115 JLINK_WriteReg(R13 (SP), 0x20001000)  returns 0x00 (0000ms, 0701ms total)
T2288 001:115 JLINK_WriteReg(R14, 0x20000001)  returns 0x00 (0000ms, 0701ms total)
T2288 001:115 JLINK_WriteReg(R15 (PC), 0x200000F4)  returns 0x00 (0000ms, 0701ms total)
T2288 001:115 JLINK_WriteReg(XPSR, 0x01000000)  returns 0x00 (0000ms, 0701ms total)
T2288 001:115 JLINK_WriteReg(MSP, 0x20001000)  returns 0x00 (0000ms, 0701ms total)
T2288 001:115 JLINK_WriteReg(PSP, 0x20001000)  returns 0x00 (0000ms, 0701ms total)
T2288 001:115 JLINK_WriteReg(CFBP, 0x00000000)  returns 0x00 (0000ms, 0701ms total)
T2288 001:115 JLINK_SetBPEx(Addr = 0x20000000, Type = 0xFFFFFFF2)  returns 0x00000007 (0000ms, 0701ms total)
T2288 001:115 JLINK_Go() (0002ms, 0703ms total)
T2288 001:117 JLINK_IsHalted()  returns FALSE (0000ms, 0703ms total)
T2288 001:122 JLINK_IsHalted()  returns FALSE (0000ms, 0703ms total)
T2288 001:124 JLINK_IsHalted()  returns FALSE (0000ms, 0703ms total)
T2288 001:126 JLINK_IsHalted()  returns FALSE (0000ms, 0703ms total)
T2288 001:128 JLINK_IsHalted()  returns FALSE (0000ms, 0703ms total)
T2288 001:130 JLINK_IsHalted()  returns FALSE (0000ms, 0703ms total)
T2288 001:132 JLINK_IsHalted()  returns FALSE (0000ms, 0703ms total)
T2288 001:134 JLINK_IsHalted()  returns FALSE (0000ms, 0703ms total)
T2288 001:136 JLINK_IsHalted()  returns FALSE (0000ms, 0703ms total)
T2288 001:138 JLINK_IsHalted()  returns FALSE (0000ms, 0703ms total)
T2288 001:140 JLINK_IsHalted()  returns FALSE (0000ms, 0703ms total)
T2288 001:142 JLINK_IsHalted()  returns FALSE (0000ms, 0703ms total)
T2288 001:144 JLINK_IsHalted()  returns FALSE (0000ms, 0703ms total)
T2288 001:146 JLINK_IsHalted()  returns FALSE (0000ms, 0703ms total)
T2288 001:148 JLINK_IsHalted() -- CPU_ReadMem(2 bytes @ 0x20000000)  returns TRUE (0004ms, 0707ms total)
T2288 001:152 JLINK_ReadReg(R15 (PC))  returns 0x20000000 (0000ms, 0703ms total)
T2288 001:152 JLINK_ClrBPEx(BPHandle = 0x00000007)  returns 0x00 (0000ms, 0703ms total)
T2288 001:152 JLINK_ReadReg(R0)  returns 0x00000000 (0000ms, 0703ms total)
T2288 001:153 JLINK_WriteMem(0x20000164, 0x0400 Bytes, ...) - Data: 68 1C 85 B2 10 2D EF D3 00 25 05 E0 00 21 A0 69 ... -- CPU_WriteMem(1024 bytes @ 0x20000164)  returns 0x400 (0007ms, 0710ms total)
T2288 001:160 JLINK_WriteReg(R0, 0x08000C00)  returns 0x00 (0000ms, 0710ms total)
T2288 001:160 JLINK_WriteReg(R1, 0x00000400)  returns 0x00 (0000ms, 0710ms total)
T2288 001:160 JLINK_WriteReg(R2, 0x20000164)  returns 0x00 (0000ms, 0710ms total)
T2288 001:160 JLINK_WriteReg(R3, 0x00000000)  returns 0x00 (0000ms, 0710ms total)
T2288 001:160 JLINK_WriteReg(R4, 0x00000000)  returns 0x00 (0000ms, 0710ms total)
T2288 001:160 JLINK_WriteReg(R5, 0x00000000)  returns 0x00 (0000ms, 0710ms total)
T2288 001:160 JLINK_WriteReg(R6, 0x00000000)  returns 0x00 (0000ms, 0710ms total)
T2288 001:160 JLINK_WriteReg(R7, 0x00000000)  returns 0x00 (0000ms, 0710ms total)
T2288 001:160 JLINK_WriteReg(R8, 0x00000000)  returns 0x00 (0000ms, 0710ms total)
T2288 001:160 JLINK_WriteReg(R9, 0x20000160)  returns 0x00 (0000ms, 0710ms total)
T2288 001:160 JLINK_WriteReg(R10, 0x00000000)  returns 0x00 (0000ms, 0710ms total)
T2288 001:160 JLINK_WriteReg(R11, 0x00000000)  returns 0x00 (0000ms, 0710ms total)
T2288 001:160 JLINK_WriteReg(R12, 0x00000000)  returns 0x00 (0000ms, 0710ms total)
T2288 001:160 JLINK_WriteReg(R13 (SP), 0x20001000)  returns 0x00 (0000ms, 0710ms total)
T2288 001:160 JLINK_WriteReg(R14, 0x20000001)  returns 0x00 (0000ms, 0710ms total)
T2288 001:160 JLINK_WriteReg(R15 (PC), 0x200000F4)  returns 0x00 (0000ms, 0710ms total)
T2288 001:160 JLINK_WriteReg(XPSR, 0x01000000)  returns 0x00 (0000ms, 0710ms total)
T2288 001:160 JLINK_WriteReg(MSP, 0x20001000)  returns 0x00 (0000ms, 0710ms total)
T2288 001:160 JLINK_WriteReg(PSP, 0x20001000)  returns 0x00 (0000ms, 0710ms total)
T2288 001:160 JLINK_WriteReg(CFBP, 0x00000000)  returns 0x00 (0000ms, 0710ms total)
T2288 001:160 JLINK_SetBPEx(Addr = 0x20000000, Type = 0xFFFFFFF2)  returns 0x00000008 (0000ms, 0710ms total)
T2288 001:160 JLINK_Go() (0003ms, 0713ms total)
T2288 001:163 JLINK_IsHalted()  returns FALSE (0001ms, 0714ms total)
T2288 001:166 JLINK_IsHalted()  returns FALSE (0001ms, 0714ms total)
T2288 001:169 JLINK_IsHalted()  returns FALSE (0001ms, 0714ms total)
T2288 001:175 JLINK_IsHalted()  returns FALSE (0000ms, 0713ms total)
T2288 001:177 JLINK_IsHalted()  returns FALSE (0001ms, 0714ms total)
T2288 001:180 JLINK_IsHalted()  returns FALSE (0001ms, 0714ms total)
T2288 001:183 JLINK_IsHalted()  returns FALSE (0001ms, 0714ms total)
T2288 001:247 JLINK_IsHalted() -- CPU_ReadMem(2 bytes @ 0x20000000)  returns TRUE (0003ms, 0716ms total)
T2288 001:250 JLINK_ReadReg(R15 (PC))  returns 0x20000000 (0000ms, 0713ms total)
T2288 001:250 JLINK_ClrBPEx(BPHandle = 0x00000008)  returns 0x00 (0001ms, 0714ms total)
T2288 001:251 JLINK_ReadReg(R0)  returns 0x00000000 (0000ms, 0714ms total)
T2288 001:251 JLINK_WriteMem(0x20000164, 0x0400 Bytes, ...) - Data: E0 7C 0A 28 04 DA E0 7C 4F F4 7A 71 48 43 01 E0 ... -- CPU_WriteMem(1024 bytes @ 0x20000164)  returns 0x400 (0007ms, 0721ms total)
T2288 001:258 JLINK_WriteReg(R0, 0x08001000)  returns 0x00 (0000ms, 0721ms total)
T2288 001:258 JLINK_WriteReg(R1, 0x00000400)  returns 0x00 (0000ms, 0721ms total)
T2288 001:258 JLINK_WriteReg(R2, 0x20000164)  returns 0x00 (0000ms, 0721ms total)
T2288 001:258 JLINK_WriteReg(R3, 0x00000000)  returns 0x00 (0000ms, 0721ms total)
T2288 001:258 JLINK_WriteReg(R4, 0x00000000)  returns 0x00 (0000ms, 0721ms total)
T2288 001:258 JLINK_WriteReg(R5, 0x00000000)  returns 0x00 (0000ms, 0721ms total)
T2288 001:258 JLINK_WriteReg(R6, 0x00000000)  returns 0x00 (0000ms, 0721ms total)
T2288 001:258 JLINK_WriteReg(R7, 0x00000000)  returns 0x00 (0000ms, 0721ms total)
T2288 001:258 JLINK_WriteReg(R8, 0x00000000)  returns 0x00 (0000ms, 0721ms total)
T2288 001:258 JLINK_WriteReg(R9, 0x20000160)  returns 0x00 (0000ms, 0721ms total)
T2288 001:258 JLINK_WriteReg(R10, 0x00000000)  returns 0x00 (0000ms, 0721ms total)
T2288 001:258 JLINK_WriteReg(R11, 0x00000000)  returns 0x00 (0000ms, 0721ms total)
T2288 001:258 JLINK_WriteReg(R12, 0x00000000)  returns 0x00 (0000ms, 0721ms total)
T2288 001:258 JLINK_WriteReg(R13 (SP), 0x20001000)  returns 0x00 (0000ms, 0721ms total)
T2288 001:258 JLINK_WriteReg(R14, 0x20000001)  returns 0x00 (0000ms, 0721ms total)
T2288 001:258 JLINK_WriteReg(R15 (PC), 0x200000F4)  returns 0x00 (0000ms, 0721ms total)
T2288 001:258 JLINK_WriteReg(XPSR, 0x01000000)  returns 0x00 (0000ms, 0721ms total)
T2288 001:258 JLINK_WriteReg(MSP, 0x20001000)  returns 0x00 (0000ms, 0721ms total)
T2288 001:258 JLINK_WriteReg(PSP, 0x20001000)  returns 0x00 (0000ms, 0721ms total)
T2288 001:258 JLINK_WriteReg(CFBP, 0x00000000)  returns 0x00 (0000ms, 0721ms total)
T2288 001:258 JLINK_SetBPEx(Addr = 0x20000000, Type = 0xFFFFFFF2)  returns 0x00000009 (0000ms, 0721ms total)
T2288 001:258 JLINK_Go() (0002ms, 0723ms total)
T2288 001:260 JLINK_IsHalted()  returns FALSE (0000ms, 0723ms total)
T2288 001:262 JLINK_IsHalted()  returns FALSE (0000ms, 0723ms total)
T2288 001:264 JLINK_IsHalted()  returns FALSE (0000ms, 0723ms total)
T2288 001:266 JLINK_IsHalted()  returns FALSE (0000ms, 0723ms total)
T2288 001:268 JLINK_IsHalted()  returns FALSE (0000ms, 0723ms total)
T2288 001:270 JLINK_IsHalted()  returns FALSE (0000ms, 0723ms total)
T2288 001:272 JLINK_IsHalted()  returns FALSE (0000ms, 0723ms total)
T2288 001:274 JLINK_IsHalted()  returns FALSE (0000ms, 0723ms total)
T2288 001:276 JLINK_IsHalted()  returns FALSE (0000ms, 0723ms total)
T2288 001:278 JLINK_IsHalted()  returns FALSE (0000ms, 0723ms total)
T2288 001:280 JLINK_IsHalted()  returns FALSE (0000ms, 0723ms total)
T2288 001:282 JLINK_IsHalted()  returns FALSE (0000ms, 0723ms total)
T2288 001:284 JLINK_IsHalted()  returns FALSE (0001ms, 0724ms total)
T2288 001:287 JLINK_IsHalted()  returns FALSE (0000ms, 0723ms total)
T2288 001:289 JLINK_IsHalted()  returns FALSE (0000ms, 0723ms total)
T2288 001:291 JLINK_IsHalted() -- CPU_ReadMem(2 bytes @ 0x20000000)  returns TRUE (0003ms, 0726ms total)
T2288 001:294 JLINK_ReadReg(R15 (PC))  returns 0x20000000 (0000ms, 0723ms total)
T2288 001:294 JLINK_ClrBPEx(BPHandle = 0x00000009)  returns 0x00 (0000ms, 0723ms total)
T2288 001:294 JLINK_ReadReg(R0)  returns 0x00000000 (0000ms, 0723ms total)
T2288 001:295 JLINK_WriteMem(0x20000164, 0x0400 Bytes, ...) - Data: 60 1C C4 B2 04 2C F8 DB 10 BD 00 00 70 B5 05 46 ... -- CPU_WriteMem(1024 bytes @ 0x20000164)  returns 0x400 (0007ms, 0730ms total)
T2288 001:302 JLINK_WriteReg(R0, 0x08001400)  returns 0x00 (0000ms, 0730ms total)
T2288 001:302 JLINK_WriteReg(R1, 0x00000400)  returns 0x00 (0000ms, 0730ms total)
T2288 001:302 JLINK_WriteReg(R2, 0x20000164)  returns 0x00 (0000ms, 0730ms total)
T2288 001:302 JLINK_WriteReg(R3, 0x00000000)  returns 0x00 (0000ms, 0730ms total)
T2288 001:302 JLINK_WriteReg(R4, 0x00000000)  returns 0x00 (0000ms, 0730ms total)
T2288 001:302 JLINK_WriteReg(R5, 0x00000000)  returns 0x00 (0000ms, 0730ms total)
T2288 001:302 JLINK_WriteReg(R6, 0x00000000)  returns 0x00 (0000ms, 0730ms total)
T2288 001:302 JLINK_WriteReg(R7, 0x00000000)  returns 0x00 (0000ms, 0730ms total)
T2288 001:302 JLINK_WriteReg(R8, 0x00000000)  returns 0x00 (0000ms, 0730ms total)
T2288 001:302 JLINK_WriteReg(R9, 0x20000160)  returns 0x00 (0000ms, 0730ms total)
T2288 001:302 JLINK_WriteReg(R10, 0x00000000)  returns 0x00 (0000ms, 0730ms total)
T2288 001:302 JLINK_WriteReg(R11, 0x00000000)  returns 0x00 (0000ms, 0730ms total)
T2288 001:303 JLINK_WriteReg(R12, 0x00000000)  returns 0x00 (0000ms, 0731ms total)
T2288 001:303 JLINK_WriteReg(R13 (SP), 0x20001000)  returns 0x00 (0000ms, 0731ms total)
T2288 001:303 JLINK_WriteReg(R14, 0x20000001)  returns 0x00 (0000ms, 0731ms total)
T2288 001:303 JLINK_WriteReg(R15 (PC), 0x200000F4)  returns 0x00 (0000ms, 0731ms total)
T2288 001:303 JLINK_WriteReg(XPSR, 0x01000000)  returns 0x00 (0000ms, 0731ms total)
T2288 001:303 JLINK_WriteReg(MSP, 0x20001000)  returns 0x00 (0000ms, 0731ms total)
T2288 001:303 JLINK_WriteReg(PSP, 0x20001000)  returns 0x00 (0000ms, 0731ms total)
T2288 001:303 JLINK_WriteReg(CFBP, 0x00000000)  returns 0x00 (0000ms, 0731ms total)
T2288 001:303 JLINK_SetBPEx(Addr = 0x20000000, Type = 0xFFFFFFF2)  returns 0x0000000A (0000ms, 0731ms total)
T2288 001:303 JLINK_Go() (0002ms, 0733ms total)
T2288 001:305 JLINK_IsHalted()  returns FALSE (0000ms, 0733ms total)
T2288 001:374 JLINK_IsHalted() -- CPU_ReadMem(2 bytes @ 0x20000000)  returns TRUE (0003ms, 0736ms total)
T2288 001:377 JLINK_ReadReg(R15 (PC))  returns 0x20000000 (0001ms, 0734ms total)
T2288 001:378 JLINK_ClrBPEx(BPHandle = 0x0000000A)  returns 0x00 (0000ms, 0734ms total)
T2288 001:378 JLINK_ReadReg(R0)  returns 0x00000000 (0000ms, 0734ms total)
T2288 001:378 JLINK_WriteMem(0x20000164, 0x0400 Bytes, ...) - Data: 0A 68 22 B1 03 4A 02 EB 80 02 0B 68 13 60 70 47 ... -- CPU_WriteMem(1024 bytes @ 0x20000164)  returns 0x400 (0007ms, 0741ms total)
T2288 001:385 JLINK_WriteReg(R0, 0x08001800)  returns 0x00 (0000ms, 0741ms total)
T2288 001:385 JLINK_WriteReg(R1, 0x00000400)  returns 0x00 (0000ms, 0741ms total)
T2288 001:385 JLINK_WriteReg(R2, 0x20000164)  returns 0x00 (0000ms, 0741ms total)
T2288 001:385 JLINK_WriteReg(R3, 0x00000000)  returns 0x00 (0000ms, 0741ms total)
T2288 001:385 JLINK_WriteReg(R4, 0x00000000)  returns 0x00 (0000ms, 0741ms total)
T2288 001:385 JLINK_WriteReg(R5, 0x00000000)  returns 0x00 (0000ms, 0741ms total)
T2288 001:385 JLINK_WriteReg(R6, 0x00000000)  returns 0x00 (0000ms, 0741ms total)
T2288 001:385 JLINK_WriteReg(R7, 0x00000000)  returns 0x00 (0000ms, 0741ms total)
T2288 001:385 JLINK_WriteReg(R8, 0x00000000)  returns 0x00 (0000ms, 0741ms total)
T2288 001:385 JLINK_WriteReg(R9, 0x20000160)  returns 0x00 (0000ms, 0741ms total)
T2288 001:385 JLINK_WriteReg(R10, 0x00000000)  returns 0x00 (0000ms, 0741ms total)
T2288 001:385 JLINK_WriteReg(R11, 0x00000000)  returns 0x00 (0000ms, 0741ms total)
T2288 001:385 JLINK_WriteReg(R12, 0x00000000)  returns 0x00 (0000ms, 0741ms total)
T2288 001:385 JLINK_WriteReg(R13 (SP), 0x20001000)  returns 0x00 (0000ms, 0741ms total)
T2288 001:385 JLINK_WriteReg(R14, 0x20000001)  returns 0x00 (0000ms, 0741ms total)
T2288 001:385 JLINK_WriteReg(R15 (PC), 0x200000F4)  returns 0x00 (0000ms, 0741ms total)
T2288 001:385 JLINK_WriteReg(XPSR, 0x01000000)  returns 0x00 (0000ms, 0741ms total)
T2288 001:385 JLINK_WriteReg(MSP, 0x20001000)  returns 0x00 (0000ms, 0741ms total)
T2288 001:385 JLINK_WriteReg(PSP, 0x20001000)  returns 0x00 (0000ms, 0741ms total)
T2288 001:385 JLINK_WriteReg(CFBP, 0x00000000)  returns 0x00 (0000ms, 0741ms total)
T2288 001:385 JLINK_SetBPEx(Addr = 0x20000000, Type = 0xFFFFFFF2)  returns 0x0000000B (0000ms, 0741ms total)
T2288 001:385 JLINK_Go() (0002ms, 0743ms total)
T2288 001:387 JLINK_IsHalted()  returns FALSE (0001ms, 0744ms total)
T2288 001:390 JLINK_IsHalted()  returns FALSE (0000ms, 0743ms total)
T2288 001:392 JLINK_IsHalted()  returns FALSE (0000ms, 0743ms total)
T2288 001:394 JLINK_IsHalted()  returns FALSE (0000ms, 0743ms total)
T2288 001:396 JLINK_IsHalted()  returns FALSE (0000ms, 0743ms total)
T2288 001:398 JLINK_IsHalted()  returns FALSE (0000ms, 0743ms total)
T2288 001:400 JLINK_IsHalted()  returns FALSE (0001ms, 0744ms total)
T2288 001:403 JLINK_IsHalted()  returns FALSE (0000ms, 0743ms total)
T2288 001:405 JLINK_IsHalted()  returns FALSE (0000ms, 0743ms total)
T2288 001:447 JLINK_IsHalted() -- CPU_ReadMem(2 bytes @ 0x20000000)  returns TRUE (0005ms, 0748ms total)
T2288 001:452 JLINK_ReadReg(R15 (PC))  returns 0x20000000 (0000ms, 0743ms total)
T2288 001:452 JLINK_ClrBPEx(BPHandle = 0x0000000B)  returns 0x00 (0000ms, 0743ms total)
T2288 001:452 JLINK_ReadReg(R0)  returns 0x00000000 (0000ms, 0743ms total)
T2288 001:452 JLINK_WriteMem(0x20000164, 0x0400 Bytes, ...) - Data: 20 68 04 62 00 20 21 68 48 62 20 68 00 F0 0A F8 ... -- CPU_WriteMem(1024 bytes @ 0x20000164)  returns 0x400 (0006ms, 0749ms total)
T2288 001:458 JLINK_WriteReg(R0, 0x08001C00)  returns 0x00 (0000ms, 0749ms total)
T2288 001:458 JLINK_WriteReg(R1, 0x00000400)  returns 0x00 (0000ms, 0749ms total)
T2288 001:458 JLINK_WriteReg(R2, 0x20000164)  returns 0x00 (0000ms, 0749ms total)
T2288 001:458 JLINK_WriteReg(R3, 0x00000000)  returns 0x00 (0000ms, 0749ms total)
T2288 001:458 JLINK_WriteReg(R4, 0x00000000)  returns 0x00 (0000ms, 0749ms total)
T2288 001:458 JLINK_WriteReg(R5, 0x00000000)  returns 0x00 (0000ms, 0749ms total)
T2288 001:458 JLINK_WriteReg(R6, 0x00000000)  returns 0x00 (0000ms, 0749ms total)
T2288 001:458 JLINK_WriteReg(R7, 0x00000000)  returns 0x00 (0000ms, 0749ms total)
T2288 001:458 JLINK_WriteReg(R8, 0x00000000)  returns 0x00 (0000ms, 0749ms total)
T2288 001:458 JLINK_WriteReg(R9, 0x20000160)  returns 0x00 (0000ms, 0749ms total)
T2288 001:458 JLINK_WriteReg(R10, 0x00000000)  returns 0x00 (0000ms, 0749ms total)
T2288 001:458 JLINK_WriteReg(R11, 0x00000000)  returns 0x00 (0000ms, 0749ms total)
T2288 001:458 JLINK_WriteReg(R12, 0x00000000)  returns 0x00 (0000ms, 0749ms total)
T2288 001:458 JLINK_WriteReg(R13 (SP), 0x20001000)  returns 0x00 (0000ms, 0749ms total)
T2288 001:458 JLINK_WriteReg(R14, 0x20000001)  returns 0x00 (0000ms, 0749ms total)
T2288 001:458 JLINK_WriteReg(R15 (PC), 0x200000F4)  returns 0x00 (0000ms, 0749ms total)
T2288 001:458 JLINK_WriteReg(XPSR, 0x01000000)  returns 0x00 (0000ms, 0749ms total)
T2288 001:458 JLINK_WriteReg(MSP, 0x20001000)  returns 0x00 (0000ms, 0749ms total)
T2288 001:458 JLINK_WriteReg(PSP, 0x20001000)  returns 0x00 (0000ms, 0749ms total)
T2288 001:458 JLINK_WriteReg(CFBP, 0x00000000)  returns 0x00 (0001ms, 0750ms total)
T2288 001:459 JLINK_SetBPEx(Addr = 0x20000000, Type = 0xFFFFFFF2)  returns 0x0000000C (0000ms, 0750ms total)
T2288 001:459 JLINK_Go() (0002ms, 0752ms total)
T2288 001:461 JLINK_IsHalted()  returns FALSE (0001ms, 0753ms total)
T2288 001:464 JLINK_IsHalted()  returns FALSE (0001ms, 0753ms total)
T2288 001:468 JLINK_IsHalted()  returns FALSE (0000ms, 0752ms total)
T2288 001:471 JLINK_IsHalted()  returns FALSE (0000ms, 0752ms total)
T2288 001:474 JLINK_IsHalted()  returns FALSE (0000ms, 0752ms total)
T2288 001:477 JLINK_IsHalted()  returns FALSE (0000ms, 0752ms total)
T2288 001:479 JLINK_IsHalted()  returns FALSE (0000ms, 0752ms total)
T2288 001:481 JLINK_IsHalted()  returns FALSE (0000ms, 0752ms total)
T2288 001:483 JLINK_IsHalted()  returns FALSE (0000ms, 0752ms total)
T2288 001:485 JLINK_IsHalted()  returns FALSE (0000ms, 0752ms total)
T2288 001:487 JLINK_IsHalted()  returns FALSE (0000ms, 0752ms total)
T2288 001:489 JLINK_IsHalted()  returns FALSE (0000ms, 0752ms total)
T2288 001:491 JLINK_IsHalted()  returns FALSE (0000ms, 0752ms total)
T2288 001:493 JLINK_IsHalted() -- CPU_ReadMem(2 bytes @ 0x20000000)  returns TRUE (0004ms, 0756ms total)
T2288 001:497 JLINK_ReadReg(R15 (PC))  returns 0x20000000 (0000ms, 0752ms total)
T2288 001:497 JLINK_ClrBPEx(BPHandle = 0x0000000C)  returns 0x00 (0000ms, 0752ms total)
T2288 001:497 JLINK_ReadReg(R0)  returns 0x00000000 (0000ms, 0752ms total)
T2288 001:498 JLINK_WriteMem(0x20000164, 0x0400 Bytes, ...) - Data: 01 49 09 1F 08 60 70 BD 14 18 01 40 2D E9 F0 41 ... -- CPU_WriteMem(1024 bytes @ 0x20000164)  returns 0x400 (0007ms, 0759ms total)
T2288 001:505 JLINK_WriteReg(R0, 0x08002000)  returns 0x00 (0000ms, 0759ms total)
T2288 001:505 JLINK_WriteReg(R1, 0x00000400)  returns 0x00 (0000ms, 0759ms total)
T2288 001:505 JLINK_WriteReg(R2, 0x20000164)  returns 0x00 (0000ms, 0759ms total)
T2288 001:505 JLINK_WriteReg(R3, 0x00000000)  returns 0x00 (0000ms, 0759ms total)
T2288 001:505 JLINK_WriteReg(R4, 0x00000000)  returns 0x00 (0000ms, 0759ms total)
T2288 001:505 JLINK_WriteReg(R5, 0x00000000)  returns 0x00 (0000ms, 0759ms total)
T2288 001:505 JLINK_WriteReg(R6, 0x00000000)  returns 0x00 (0000ms, 0759ms total)
T2288 001:505 JLINK_WriteReg(R7, 0x00000000)  returns 0x00 (0000ms, 0759ms total)
T2288 001:505 JLINK_WriteReg(R8, 0x00000000)  returns 0x00 (0000ms, 0759ms total)
T2288 001:505 JLINK_WriteReg(R9, 0x20000160)  returns 0x00 (0000ms, 0759ms total)
T2288 001:505 JLINK_WriteReg(R10, 0x00000000)  returns 0x00 (0000ms, 0759ms total)
T2288 001:505 JLINK_WriteReg(R11, 0x00000000)  returns 0x00 (0000ms, 0759ms total)
T2288 001:505 JLINK_WriteReg(R12, 0x00000000)  returns 0x00 (0000ms, 0759ms total)
T2288 001:505 JLINK_WriteReg(R13 (SP), 0x20001000)  returns 0x00 (0000ms, 0759ms total)
T2288 001:505 JLINK_WriteReg(R14, 0x20000001)  returns 0x00 (0000ms, 0759ms total)
T2288 001:505 JLINK_WriteReg(R15 (PC), 0x200000F4)  returns 0x00 (0000ms, 0759ms total)
T2288 001:505 JLINK_WriteReg(XPSR, 0x01000000)  returns 0x00 (0000ms, 0759ms total)
T2288 001:505 JLINK_WriteReg(MSP, 0x20001000)  returns 0x00 (0000ms, 0759ms total)
T2288 001:505 JLINK_WriteReg(PSP, 0x20001000)  returns 0x00 (0000ms, 0759ms total)
T2288 001:505 JLINK_WriteReg(CFBP, 0x00000000)  returns 0x00 (0000ms, 0759ms total)
T2288 001:505 JLINK_SetBPEx(Addr = 0x20000000, Type = 0xFFFFFFF2)  returns 0x0000000D (0000ms, 0759ms total)
T2288 001:505 JLINK_Go() (0003ms, 0762ms total)
T2288 001:508 JLINK_IsHalted()  returns FALSE (0001ms, 0763ms total)
T2288 001:563 JLINK_IsHalted() -- CPU_ReadMem(2 bytes @ 0x20000000)  returns TRUE (0004ms, 0766ms total)
T2288 001:567 JLINK_ReadReg(R15 (PC))  returns 0x20000000 (0000ms, 0762ms total)
T2288 001:567 JLINK_ClrBPEx(BPHandle = 0x0000000D)  returns 0x00 (0000ms, 0762ms total)
T2288 001:567 JLINK_ReadReg(R0)  returns 0x00000000 (0000ms, 0762ms total)
T2288 001:567 JLINK_WriteMem(0x20000164, 0x0400 Bytes, ...) - Data: 27 0A 4F F0 FF 30 00 90 49 46 38 46 00 F0 28 FE ... -- CPU_WriteMem(1024 bytes @ 0x20000164)  returns 0x400 (0007ms, 0769ms total)
T2288 001:574 JLINK_WriteReg(R0, 0x08002400)  returns 0x00 (0000ms, 0769ms total)
T2288 001:574 JLINK_WriteReg(R1, 0x00000400)  returns 0x00 (0001ms, 0770ms total)
T2288 001:575 JLINK_WriteReg(R2, 0x20000164)  returns 0x00 (0000ms, 0770ms total)
T2288 001:575 JLINK_WriteReg(R3, 0x00000000)  returns 0x00 (0000ms, 0770ms total)
T2288 001:575 JLINK_WriteReg(R4, 0x00000000)  returns 0x00 (0000ms, 0770ms total)
T2288 001:575 JLINK_WriteReg(R5, 0x00000000)  returns 0x00 (0000ms, 0770ms total)
T2288 001:575 JLINK_WriteReg(R6, 0x00000000)  returns 0x00 (0000ms, 0770ms total)
T2288 001:575 JLINK_WriteReg(R7, 0x00000000)  returns 0x00 (0000ms, 0770ms total)
T2288 001:575 JLINK_WriteReg(R8, 0x00000000)  returns 0x00 (0000ms, 0770ms total)
T2288 001:575 JLINK_WriteReg(R9, 0x20000160)  returns 0x00 (0000ms, 0770ms total)
T2288 001:575 JLINK_WriteReg(R10, 0x00000000)  returns 0x00 (0000ms, 0770ms total)
T2288 001:575 JLINK_WriteReg(R11, 0x00000000)  returns 0x00 (0000ms, 0770ms total)
T2288 001:575 JLINK_WriteReg(R12, 0x00000000)  returns 0x00 (0000ms, 0770ms total)
T2288 001:575 JLINK_WriteReg(R13 (SP), 0x20001000)  returns 0x00 (0000ms, 0770ms total)
T2288 001:575 JLINK_WriteReg(R14, 0x20000001)  returns 0x00 (0000ms, 0770ms total)
T2288 001:575 JLINK_WriteReg(R15 (PC), 0x200000F4)  returns 0x00 (0000ms, 0770ms total)
T2288 001:575 JLINK_WriteReg(XPSR, 0x01000000)  returns 0x00 (0000ms, 0770ms total)
T2288 001:575 JLINK_WriteReg(MSP, 0x20001000)  returns 0x00 (0000ms, 0770ms total)
T2288 001:575 JLINK_WriteReg(PSP, 0x20001000)  returns 0x00 (0000ms, 0770ms total)
T2288 001:575 JLINK_WriteReg(CFBP, 0x00000000)  returns 0x00 (0000ms, 0770ms total)
T2288 001:575 JLINK_SetBPEx(Addr = 0x20000000, Type = 0xFFFFFFF2)  returns 0x0000000E (0000ms, 0770ms total)
T2288 001:575 JLINK_Go() (0002ms, 0772ms total)
T2288 001:578 JLINK_IsHalted()  returns FALSE (0001ms, 0773ms total)
T2288 001:581 JLINK_IsHalted()  returns FALSE (0001ms, 0773ms total)
T2288 001:584 JLINK_IsHalted()  returns FALSE (0000ms, 0772ms total)
T2288 001:586 JLINK_IsHalted()  returns FALSE (0001ms, 0773ms total)
T2288 001:589 JLINK_IsHalted()  returns FALSE (0001ms, 0773ms total)
T2288 001:593 JLINK_IsHalted()  returns FALSE (0001ms, 0773ms total)
T2288 001:596 JLINK_IsHalted()  returns FALSE (0001ms, 0773ms total)
T2288 001:599 JLINK_IsHalted()  returns FALSE (0000ms, 0772ms total)
T2288 001:601 JLINK_IsHalted()  returns FALSE (0001ms, 0773ms total)
T2288 001:604 JLINK_IsHalted()  returns FALSE (0000ms, 0772ms total)
T2288 001:606 JLINK_IsHalted()  returns FALSE (0000ms, 0772ms total)
T2288 001:608 JLINK_IsHalted() -- CPU_ReadMem(2 bytes @ 0x20000000)  returns TRUE (0004ms, 0776ms total)
T2288 001:612 JLINK_ReadReg(R15 (PC))  returns 0x20000000 (0000ms, 0772ms total)
T2288 001:612 JLINK_ClrBPEx(BPHandle = 0x0000000E)  returns 0x00 (0000ms, 0772ms total)
T2288 001:612 JLINK_ReadReg(R0)  returns 0x00000000 (0000ms, 0772ms total)
T2288 001:612 JLINK_WriteMem(0x20000164, 0x0400 Bytes, ...) - Data: 22 69 90 47 05 46 1D B1 30 46 02 F0 5A FA 00 26 ... -- CPU_WriteMem(1024 bytes @ 0x20000164)  returns 0x400 (0007ms, 0779ms total)
T2288 001:619 JLINK_WriteReg(R0, 0x08002800)  returns 0x00 (0000ms, 0779ms total)
T2288 001:619 JLINK_WriteReg(R1, 0x00000400)  returns 0x00 (0000ms, 0779ms total)
T2288 001:619 JLINK_WriteReg(R2, 0x20000164)  returns 0x00 (0000ms, 0779ms total)
T2288 001:619 JLINK_WriteReg(R3, 0x00000000)  returns 0x00 (0000ms, 0779ms total)
T2288 001:619 JLINK_WriteReg(R4, 0x00000000)  returns 0x00 (0000ms, 0779ms total)
T2288 001:619 JLINK_WriteReg(R5, 0x00000000)  returns 0x00 (0000ms, 0779ms total)
T2288 001:619 JLINK_WriteReg(R6, 0x00000000)  returns 0x00 (0000ms, 0779ms total)
T2288 001:619 JLINK_WriteReg(R7, 0x00000000)  returns 0x00 (0000ms, 0779ms total)
T2288 001:619 JLINK_WriteReg(R8, 0x00000000)  returns 0x00 (0000ms, 0779ms total)
T2288 001:619 JLINK_WriteReg(R9, 0x20000160)  returns 0x00 (0000ms, 0779ms total)
T2288 001:619 JLINK_WriteReg(R10, 0x00000000)  returns 0x00 (0001ms, 0780ms total)
T2288 001:620 JLINK_WriteReg(R11, 0x00000000)  returns 0x00 (0000ms, 0780ms total)
T2288 001:620 JLINK_WriteReg(R12, 0x00000000)  returns 0x00 (0000ms, 0780ms total)
T2288 001:620 JLINK_WriteReg(R13 (SP), 0x20001000)  returns 0x00 (0000ms, 0780ms total)
T2288 001:620 JLINK_WriteReg(R14, 0x20000001)  returns 0x00 (0000ms, 0780ms total)
T2288 001:620 JLINK_WriteReg(R15 (PC), 0x200000F4)  returns 0x00 (0000ms, 0780ms total)
T2288 001:620 JLINK_WriteReg(XPSR, 0x01000000)  returns 0x00 (0000ms, 0780ms total)
T2288 001:620 JLINK_WriteReg(MSP, 0x20001000)  returns 0x00 (0000ms, 0780ms total)
T2288 001:620 JLINK_WriteReg(PSP, 0x20001000)  returns 0x00 (0000ms, 0780ms total)
T2288 001:620 JLINK_WriteReg(CFBP, 0x00000000)  returns 0x00 (0000ms, 0780ms total)
T2288 001:620 JLINK_SetBPEx(Addr = 0x20000000, Type = 0xFFFFFFF2)  returns 0x0000000F (0000ms, 0780ms total)
T2288 001:620 JLINK_Go() (0002ms, 0782ms total)
T2288 001:622 JLINK_IsHalted()  returns FALSE (0001ms, 0783ms total)
T2288 001:685 JLINK_IsHalted() -- CPU_ReadMem(2 bytes @ 0x20000000)  returns TRUE (0004ms, 0786ms total)
T2288 001:689 JLINK_ReadReg(R15 (PC))  returns 0x20000000 (0000ms, 0782ms total)
T2288 001:689 JLINK_ClrBPEx(BPHandle = 0x0000000F)  returns 0x00 (0000ms, 0782ms total)
T2288 001:689 JLINK_ReadReg(R0)  returns 0x00000000 (0000ms, 0782ms total)
T2288 001:689 JLINK_WriteMem(0x20000164, 0x0400 Bytes, ...) - Data: 28 46 02 F0 94 F8 10 B9 28 89 04 28 00 D2 A7 E0 ... -- CPU_WriteMem(1024 bytes @ 0x20000164)  returns 0x400 (0007ms, 0789ms total)
T2288 001:696 JLINK_WriteReg(R0, 0x08002C00)  returns 0x00 (0000ms, 0789ms total)
